
T31D0 000:316 SEGGER J-Link V4.96d Log File (0001ms, 0266ms total)
T31D0 000:316 DLL Compiled: Jan 29 2015 11:45:37 (0001ms, 0266ms total)
T31D0 000:316 Logging started @ 2021-10-14 16:36 (0001ms, 0266ms total)
T31D0 000:317 JLINK_SetWarnOutHandler(...) (0000ms, 0266ms total)
T31D0 000:317 JLINK_OpenEx(...)
Firmware: J-Link ARM V8 compiled Nov 28 2014 13:44:46
Hardware: V8.00
Feature(s): RDI,FlashDL,FlashBP,JFlash,GDB  returns O.K. (0264ms, 0530ms total)
T31D0 000:581 JLINK_SetErrorOutHandler(...) (0000ms, 0530ms total)
T31D0 000:581 JLINK_ExecCommand("ProjectFile = "D:\0.WORK\1.ÏÔÊ¾Ãæ°å\SoftWare\DSY_Ver2.0\Project\JLinkSettings.ini"", ...)  returns 0x00 (0000ms, 0530ms total)
T31D0 000:582 JLINK_ExecCommand("Device = STM32F103RC", ...)Device "STM32F103RC" selected.  returns 0x00 (0001ms, 0531ms total)
T31D0 000:583 JLINK_ExecCommand("DisableConnectionTimeout", ...)  returns 0x01 (0000ms, 0531ms total)
T31D0 000:583 JLINK_GetHardwareVersion()  returns 0x13880 (0000ms, 0531ms total)
T31D0 000:583 JLINK_GetDLLVersion()  returns 49604 (0000ms, 0531ms total)
T31D0 000:583 JLINK_GetFirmwareString(...) (0000ms, 0531ms total)
T31D0 000:586 JLINK_GetDLLVersion()  returns 49604 (0000ms, 0531ms total)
T31D0 000:586 JLINK_GetCompileDateTime() (0000ms, 0531ms total)
T31D0 000:587 JLINK_GetFirmwareString(...) (0000ms, 0531ms total)
T31D0 000:589 JLINK_GetHardwareVersion()  returns 0x13880 (0000ms, 0531ms total)
T31D0 000:593 JLINK_TIF_Select(JLINKARM_TIF_SWD)  returns 0x00 (0001ms, 0532ms total)
T31D0 000:594 JLINK_SetSpeed(2000) (0000ms, 0532ms total)
T31D0 000:594 JLINK_GetId() >0x108 TIF>Found SWD-DP with ID 0x1BA01477 >0x0D TIF> >0x28 TIF> >0x0D TIF> >0x28 TIF> >0x0D TIF> >0x21 TIF> >0x0D TIF> >0x28 TIF> >0x0D TIF> >0x28 TIF> >0x0D TIF> >0x28 TIF> >0x0D TIF> >0x21 TIF> >0x0D TIF> >0x21 TIF> >0x0D TIF> >0x28 TIF> >0x0D TIF> >0x21 TIF> >0x0D TIF> >0x21 TIF> >0x0D TIF> >0x28 TIF> >0x0D TIF> >0x28 TIF> >0x108 TIF>Found SWD-DP with ID 0x1BA01477 >0x0D TIF> >0x21 TIF> >0x0D TIF> >0x28 TIF> >0x0D TIF> >0x28 TIF> >0x0D TIF> >0x21 TIF> >0x0D TIF> >0x28 TIF>
 >0x0D TIF> >0x21 TIF> >0x0D TIF> >0x21 TIF> >0x0D TIF> >0x21 TIF> >0x0D TIF> >0x21 TIF> >0x0D TIF> >0x28 TIF> >0x0D TIF> >0x28 TIF> >0x0D TIF> >0x21 TIF> >0x0D TIF> >0x28 TIF> >0x0D TIF> >0x28 TIF> >0x0D TIF> >0x28 TIF> >0x0D TIF> >0x21 TIF> >0x0D TIF> >0x21 TIF> >0x0D TIF> >0x28 TIF> >0x0D TIF> >0x21 TIF> >0x0D TIF> >0x21 TIF>Found Cortex-M3 r1p1, Little endian. -- CPU_WriteMem(4 bytes @ 0xE0002000) -- CPU_ReadMem(4 bytes @ 0xE000EDF0) -- CPU_ReadMem(4 bytes @ 0xE0002000)
FPUnit: 6 code (BP) slots and 2 literal slots -- CPU_ReadMem(4 bytes @ 0xE000EDFC) -- CPU_ReadMem(4 bytes @ 0xE0001000) -- CPU_WriteMem(4 bytes @ 0xE0001000) -- CPU_ReadMem(4 bytes @ 0xE000ED88) -- CPU_WriteMem(4 bytes @ 0xE000ED88) -- CPU_ReadMem(4 bytes @ 0xE000ED88) -- CPU_WriteMem(4 bytes @ 0xE000ED88) -- CPU_ReadMem(4 bytes @ 0xE00FF010)TPIU fitted. -- CPU_ReadMem(4 bytes @ 0xE00FF014)ETM fitted. -- CPU_ReadMem(4 bytes @ 0xE00FF018) >0x0D TIF> >0x21 TIF>  returns 0x1BA01477 (0038ms, 0570ms total)
T31D0 000:632 JLINK_GetDLLVersion()  returns 49604 (0000ms, 0570ms total)
T31D0 000:632 JLINK_CORE_GetFound()  returns 0x30000FF (0000ms, 0570ms total)
T31D0 000:632 JLINK_GetDebugInfo(0x100) -- Value=0xE00FF003  returns 0x00 (0000ms, 0570ms total)
T31D0 000:635 JLINK_ReadMem (0xE00FF000, 0x0020 Bytes, ...) -- CPU is running -- CPU_ReadMem(32 bytes @ 0xE00FF000) - Data: 03 F0 F0 FF 03 20 F0 FF 03 30 F0 FF 03 10 F0 FF ...  returns 0x00 (0001ms, 0571ms total)
T31D0 000:636 JLINK_ReadMem (0xE000EFF0, 0x0010 Bytes, ...) -- CPU is running -- CPU_ReadMem(16 bytes @ 0xE000EFF0) - Data: 0D 00 00 00 E0 00 00 00 05 00 00 00 B1 00 00 00  returns 0x00 (0000ms, 0571ms total)
T31D0 000:636 JLINK_ReadMem (0xE000EFD0, 0x0020 Bytes, ...) -- CPU is running -- CPU_ReadMem(32 bytes @ 0xE000EFD0) - Data: 04 00 00 00 00 00 00 00 00 00 00 00 00 00 00 00 ...  returns 0x00 (0001ms, 0572ms total)
T31D0 000:637 JLINK_ReadMem (0xE0001FF0, 0x0010 Bytes, ...) -- CPU is running -- CPU_ReadMem(16 bytes @ 0xE0001FF0) - Data: 0D 00 00 00 E0 00 00 00 05 00 00 00 B1 00 00 00  returns 0x00 (0001ms, 0573ms total)
T31D0 000:638 JLINK_ReadMem (0xE0001FD0, 0x0020 Bytes, ...) -- CPU is running -- CPU_ReadMem(32 bytes @ 0xE0001FD0) - Data: 04 00 00 00 00 00 00 00 00 00 00 00 00 00 00 00 ...  returns 0x00 (0000ms, 0573ms total)
T31D0 000:638 JLINK_ReadMem (0xE0002FF0, 0x0010 Bytes, ...) -- CPU is running -- CPU_ReadMem(16 bytes @ 0xE0002FF0) - Data: 0D 00 00 00 E0 00 00 00 05 00 00 00 B1 00 00 00  returns 0x00 (0001ms, 0574ms total)
T31D0 000:639 JLINK_ReadMem (0xE0002FD0, 0x0020 Bytes, ...) -- CPU is running -- CPU_ReadMem(32 bytes @ 0xE0002FD0) - Data: 04 00 00 00 00 00 00 00 00 00 00 00 00 00 00 00 ...  returns 0x00 (0001ms, 0575ms total)
T31D0 000:640 JLINK_ReadMem (0xE0000FF0, 0x0010 Bytes, ...) -- CPU is running -- CPU_ReadMem(16 bytes @ 0xE0000FF0) - Data: 0D 00 00 00 E0 00 00 00 05 00 00 00 B1 00 00 00  returns 0x00 (0000ms, 0575ms total)
T31D0 000:640 JLINK_ReadMem (0xE0000FD0, 0x0020 Bytes, ...) -- CPU is running -- CPU_ReadMem(32 bytes @ 0xE0000FD0) - Data: 04 00 00 00 00 00 00 00 00 00 00 00 00 00 00 00 ...  returns 0x00 (0001ms, 0576ms total)
T31D0 000:641 JLINK_ReadMem (0xE0040FF0, 0x0010 Bytes, ...) -- CPU is running -- CPU_ReadMem(16 bytes @ 0xE0040FF0) - Data: 0D 00 00 00 90 00 00 00 05 00 00 00 B1 00 00 00  returns 0x00 (0001ms, 0577ms total)
T31D0 000:642 JLINK_ReadMem (0xE0040FD0, 0x0020 Bytes, ...) -- CPU is running -- CPU_ReadMem(32 bytes @ 0xE0040FD0) - Data: 04 00 00 00 00 00 00 00 00 00 00 00 00 00 00 00 ...  returns 0x00 (0000ms, 0577ms total)
T31D0 000:642 JLINK_ReadMem (0xE0041FF0, 0x0010 Bytes, ...) -- CPU is running -- CPU_ReadMem(16 bytes @ 0xE0041FF0) - Data: 0D 00 00 00 90 00 00 00 05 00 00 00 B1 00 00 00  returns 0x00 (0001ms, 0578ms total)
T31D0 000:643 JLINK_ReadMem (0xE0041FD0, 0x0020 Bytes, ...) -- CPU is running -- CPU_ReadMem(32 bytes @ 0xE0041FD0) - Data: 04 00 00 00 00 00 00 00 00 00 00 00 00 00 00 00 ...  returns 0x00 (0001ms, 0579ms total)
T31D0 000:644 JLINK_ReadMemU32(0xE000ED00, 0x0001 Items, ...) -- CPU is running -- CPU_ReadMem(4 bytes @ 0xE000ED00) - Data: 31 C2 1F 41  returns 0x01 (0000ms, 0579ms total)
T31D0 000:644 JLINK_SetResetType(JLINKARM_RESET_TYPE_NORMAL)  returns JLINKARM_RESET_TYPE_NORMAL (0000ms, 0579ms total)
T31D0 000:644 JLINK_Reset() -- CPU is running -- CPU_WriteMem(4 bytes @ 0xE000EDF0) -- CPU is running -- CPU_WriteMem(4 bytes @ 0xE000EDFC) >0x35 TIF> -- CPU is running -- CPU_WriteMem(4 bytes @ 0xE000ED0C) -- CPU is running -- CPU_ReadMem(4 bytes @ 0xE000EDF0) -- CPU is running -- CPU_ReadMem(4 bytes @ 0xE000EDF0) -- CPU is running -- CPU_WriteMem(4 bytes @ 0xE000EDF0) -- CPU is running -- CPU_WriteMem(4 bytes @ 0xE000EDFC) -- CPU is running -- CPU_ReadMem(4 bytes @ 0xE000EDF0)
 -- CPU_WriteMem(4 bytes @ 0xE0002000) -- CPU_ReadMem(4 bytes @ 0xE000EDFC) -- CPU_ReadMem(4 bytes @ 0xE0001000) (0019ms, 0598ms total)
T31D0 000:663 JLINK_Halt()  returns 0x00 (0000ms, 0598ms total)
T31D0 000:663 JLINK_IsHalted()  returns TRUE (0000ms, 0598ms total)
T31D0 000:663 JLINK_ReadMemU32(0xE000EDF0, 0x0001 Items, ...) -- CPU_ReadMem(4 bytes @ 0xE000EDF0) - Data: 03 00 03 00  returns 0x01 (0000ms, 0598ms total)
T31D0 000:663 JLINK_WriteU32(0xE000EDF0, 0xA05F0003) -- CPU_WriteMem(4 bytes @ 0xE000EDF0)  returns 0x00 (0001ms, 0599ms total)
T31D0 000:664 JLINK_WriteU32(0xE000EDFC, 0x01000000) -- CPU_WriteMem(4 bytes @ 0xE000EDFC)  returns 0x00 (0000ms, 0599ms total)
T31D0 000:675 JLINK_GetHWStatus(...)  returns 0x00 (0000ms, 0599ms total)
T31D0 000:681 JLINK_GetNumBPUnits(Type = 0xFFFFFF00)  returns 0x06 (0000ms, 0599ms total)
T31D0 000:681 JLINK_GetNumBPUnits(Type = 0xF0)  returns 0x2000 (0000ms, 0599ms total)
T31D0 000:681 JLINK_GetNumWPUnits()  returns 0x04 (0000ms, 0599ms total)
T31D0 000:686 JLINK_GetSpeed()  returns 0x7D0 (0000ms, 0599ms total)
T31D0 000:690 JLINK_ReadMemU32(0xE000E004, 0x0001 Items, ...) -- CPU_ReadMem(4 bytes @ 0xE000E004) - Data: 01 00 00 00  returns 0x01 (0000ms, 0599ms total)
T31D0 000:690 JLINK_ReadMemU32(0xE000E004, 0x0001 Items, ...) -- CPU_ReadMem(4 bytes @ 0xE000E004) - Data: 01 00 00 00  returns 0x01 (0001ms, 0600ms total)
T31D0 000:691 JLINK_WriteMem(0xE0001000, 0x001C Bytes, ...) - Data: 01 00 00 00 00 00 00 00 00 00 00 00 00 00 00 00 ... -- CPU_WriteMem(28 bytes @ 0xE0001000)  returns 0x1C (0001ms, 0601ms total)
T31D0 000:692 JLINK_ReadMem (0xE0001000, 0x001C Bytes, ...) -- CPU_ReadMem(28 bytes @ 0xE0001000) - Data: 01 00 00 40 00 00 00 00 00 00 00 00 00 00 00 00 ...  returns 0x00 (0001ms, 0602ms total)
T31D0 000:693 JLINK_Halt()  returns 0x00 (0000ms, 0602ms total)
T31D0 000:693 JLINK_IsHalted()  returns TRUE (0000ms, 0602ms total)
T31D0 000:695 JLINK_WriteMem(0x20000000, 0x0164 Bytes, ...) - Data: 00 BE 0A E0 0D 78 2D 06 68 40 08 24 40 00 00 D3 ... -- CPU_WriteMem(356 bytes @ 0x20000000)  returns 0x164 (0004ms, 0606ms total)
T31D0 000:699 JLINK_WriteReg(R0, 0x08000000)  returns 0x00 (0000ms, 0606ms total)
T31D0 000:699 JLINK_WriteReg(R1, 0x00B71B00)  returns 0x00 (0000ms, 0606ms total)
T31D0 000:699 JLINK_WriteReg(R2, 0x00000001)  returns 0x00 (0000ms, 0606ms total)
T31D0 000:699 JLINK_WriteReg(R3, 0x00000000)  returns 0x00 (0000ms, 0606ms total)
T31D0 000:699 JLINK_WriteReg(R4, 0x00000000)  returns 0x00 (0000ms, 0606ms total)
T31D0 000:699 JLINK_WriteReg(R5, 0x00000000)  returns 0x00 (0000ms, 0606ms total)
T31D0 000:699 JLINK_WriteReg(R6, 0x00000000)  returns 0x00 (0000ms, 0606ms total)
T31D0 000:699 JLINK_WriteReg(R7, 0x00000000)  returns 0x00 (0000ms, 0606ms total)
T31D0 000:699 JLINK_WriteReg(R8, 0x00000000)  returns 0x00 (0000ms, 0606ms total)
T31D0 000:699 JLINK_WriteReg(R9, 0x20000160)  returns 0x00 (0000ms, 0606ms total)
T31D0 000:699 JLINK_WriteReg(R10, 0x00000000)  returns 0x00 (0000ms, 0606ms total)
T31D0 000:699 JLINK_WriteReg(R11, 0x00000000)  returns 0x00 (0000ms, 0606ms total)
T31D0 000:699 JLINK_WriteReg(R12, 0x00000000)  returns 0x00 (0000ms, 0606ms total)
T31D0 000:699 JLINK_WriteReg(R13 (SP), 0x20001000)  returns 0x00 (0000ms, 0606ms total)
T31D0 000:699 JLINK_WriteReg(R14, 0x20000001)  returns 0x00 (0000ms, 0606ms total)
T31D0 000:699 JLINK_WriteReg(R15 (PC), 0x20000038)  returns 0x00 (0000ms, 0606ms total)
T31D0 000:699 JLINK_WriteReg(XPSR, 0x01000000)  returns 0x00 (0000ms, 0606ms total)
T31D0 000:699 JLINK_WriteReg(MSP, 0x20001000)  returns 0x00 (0000ms, 0606ms total)
T31D0 000:699 JLINK_WriteReg(PSP, 0x20001000)  returns 0x00 (0000ms, 0606ms total)
T31D0 000:699 JLINK_WriteReg(CFBP, 0x00000000)  returns 0x00 (0000ms, 0606ms total)
T31D0 000:699 JLINK_SetBPEx(Addr = 0x20000000, Type = 0xFFFFFFF2) -- CPU_ReadMem(2 bytes @ 0x20000000)  returns 0x00000001 (0001ms, 0607ms total)
T31D0 000:700 JLINK_Go() -- CPU_WriteMem(2 bytes @ 0x20000000) -- CPU_WriteMem(4 bytes @ 0xE0002008) -- CPU_WriteMem(4 bytes @ 0xE000200C) -- CPU_WriteMem(4 bytes @ 0xE0002010) -- CPU_WriteMem(4 bytes @ 0xE0002014) -- CPU_WriteMem(4 bytes @ 0xE0002018) -- CPU_WriteMem(4 bytes @ 0xE000201C) -- CPU_WriteMem(4 bytes @ 0xE0001004) (0007ms, 0614ms total)
T31D0 000:707 JLINK_IsHalted() -- CPU_ReadMem(2 bytes @ 0x20000000)  returns TRUE (0003ms, 0617ms total)
T31D0 000:710 JLINK_ReadReg(R15 (PC))  returns 0x20000000 (0000ms, 0614ms total)
T31D0 000:710 JLINK_ClrBPEx(BPHandle = 0x00000001)  returns 0x00 (0000ms, 0614ms total)
T31D0 000:710 JLINK_ReadReg(R0)  returns 0x00000000 (0000ms, 0614ms total)
T31D0 000:711 JLINK_WriteReg(R0, 0x08000000)  returns 0x00 (0000ms, 0614ms total)
T31D0 000:711 JLINK_WriteReg(R1, 0x00B71B00)  returns 0x00 (0000ms, 0614ms total)
T31D0 000:711 JLINK_WriteReg(R2, 0x00000001)  returns 0x00 (0000ms, 0614ms total)
T31D0 000:711 JLINK_WriteReg(R3, 0x00000000)  returns 0x00 (0000ms, 0614ms total)
T31D0 000:711 JLINK_WriteReg(R4, 0x00000000)  returns 0x00 (0000ms, 0614ms total)
T31D0 000:711 JLINK_WriteReg(R5, 0x00000000)  returns 0x00 (0000ms, 0614ms total)
T31D0 000:711 JLINK_WriteReg(R6, 0x00000000)  returns 0x00 (0000ms, 0614ms total)
T31D0 000:711 JLINK_WriteReg(R7, 0x00000000)  returns 0x00 (0000ms, 0614ms total)
T31D0 000:711 JLINK_WriteReg(R8, 0x00000000)  returns 0x00 (0000ms, 0614ms total)
T31D0 000:711 JLINK_WriteReg(R9, 0x20000160)  returns 0x00 (0000ms, 0614ms total)
T31D0 000:711 JLINK_WriteReg(R10, 0x00000000)  returns 0x00 (0000ms, 0614ms total)
T31D0 000:711 JLINK_WriteReg(R11, 0x00000000)  returns 0x00 (0000ms, 0614ms total)
T31D0 000:711 JLINK_WriteReg(R12, 0x00000000)  returns 0x00 (0000ms, 0614ms total)
T31D0 000:711 JLINK_WriteReg(R13 (SP), 0x20001000)  returns 0x00 (0000ms, 0614ms total)
T31D0 000:711 JLINK_WriteReg(R14, 0x20000001)  returns 0x00 (0000ms, 0614ms total)
T31D0 000:711 JLINK_WriteReg(R15 (PC), 0x2000007C)  returns 0x00 (0000ms, 0614ms total)
T31D0 000:711 JLINK_WriteReg(XPSR, 0x01000000)  returns 0x00 (0000ms, 0614ms total)
T31D0 000:711 JLINK_WriteReg(MSP, 0x20001000)  returns 0x00 (0000ms, 0614ms total)
T31D0 000:711 JLINK_WriteReg(PSP, 0x20001000)  returns 0x00 (0000ms, 0614ms total)
T31D0 000:711 JLINK_WriteReg(CFBP, 0x00000000)  returns 0x00 (0000ms, 0614ms total)
T31D0 000:711 JLINK_SetBPEx(Addr = 0x20000000, Type = 0xFFFFFFF2)  returns 0x00000002 (0000ms, 0614ms total)
T31D0 000:711 JLINK_Go() (0001ms, 0615ms total)
T31D0 000:712 JLINK_IsHalted()  returns FALSE (0001ms, 0616ms total)
T31D0 000:775 JLINK_IsHalted() -- CPU_ReadMem(2 bytes @ 0x20000000)  returns TRUE (0003ms, 0618ms total)
T31D0 000:778 JLINK_ReadReg(R15 (PC))  returns 0x20000000 (0000ms, 0615ms total)
T31D0 000:778 JLINK_ClrBPEx(BPHandle = 0x00000002)  returns 0x00 (0000ms, 0615ms total)
T31D0 000:778 JLINK_ReadReg(R0)  returns 0x00000000 (0000ms, 0615ms total)
T31D0 000:830 JLINK_WriteReg(R0, 0x00000001)  returns 0x00 (0000ms, 0615ms total)
T31D0 000:830 JLINK_WriteReg(R1, 0x00B71B00)  returns 0x00 (0000ms, 0615ms total)
T31D0 000:830 JLINK_WriteReg(R2, 0x00000001)  returns 0x00 (0000ms, 0615ms total)
T31D0 000:830 JLINK_WriteReg(R3, 0x00000000)  returns 0x00 (0000ms, 0615ms total)
T31D0 000:830 JLINK_WriteReg(R4, 0x00000000)  returns 0x00 (0000ms, 0615ms total)
T31D0 000:830 JLINK_WriteReg(R5, 0x00000000)  returns 0x00 (0000ms, 0615ms total)
T31D0 000:830 JLINK_WriteReg(R6, 0x00000000)  returns 0x00 (0000ms, 0615ms total)
T31D0 000:830 JLINK_WriteReg(R7, 0x00000000)  returns 0x00 (0000ms, 0615ms total)
T31D0 000:830 JLINK_WriteReg(R8, 0x00000000)  returns 0x00 (0000ms, 0615ms total)
T31D0 000:830 JLINK_WriteReg(R9, 0x20000160)  returns 0x00 (0000ms, 0615ms total)
T31D0 000:830 JLINK_WriteReg(R10, 0x00000000)  returns 0x00 (0000ms, 0615ms total)
T31D0 000:830 JLINK_WriteReg(R11, 0x00000000)  returns 0x00 (0000ms, 0615ms total)
T31D0 000:830 JLINK_WriteReg(R12, 0x00000000)  returns 0x00 (0000ms, 0615ms total)
T31D0 000:830 JLINK_WriteReg(R13 (SP), 0x20001000)  returns 0x00 (0000ms, 0615ms total)
T31D0 000:830 JLINK_WriteReg(R14, 0x20000001)  returns 0x00 (0000ms, 0615ms total)
T31D0 000:830 JLINK_WriteReg(R15 (PC), 0x2000006A)  returns 0x00 (0000ms, 0615ms total)
T31D0 000:830 JLINK_WriteReg(XPSR, 0x01000000)  returns 0x00 (0000ms, 0615ms total)
T31D0 000:830 JLINK_WriteReg(MSP, 0x20001000)  returns 0x00 (0000ms, 0615ms total)
T31D0 000:830 JLINK_WriteReg(PSP, 0x20001000)  returns 0x00 (0000ms, 0615ms total)
T31D0 000:830 JLINK_WriteReg(CFBP, 0x00000000)  returns 0x00 (0000ms, 0615ms total)
T31D0 000:830 JLINK_SetBPEx(Addr = 0x20000000, Type = 0xFFFFFFF2)  returns 0x00000003 (0000ms, 0615ms total)
T31D0 000:830 JLINK_Go() (0002ms, 0617ms total)
T31D0 000:832 JLINK_IsHalted() -- CPU_ReadMem(2 bytes @ 0x20000000)  returns TRUE (0004ms, 0621ms total)
T31D0 000:836 JLINK_ReadReg(R15 (PC))  returns 0x20000000 (0000ms, 0617ms total)
T31D0 000:836 JLINK_ClrBPEx(BPHandle = 0x00000003)  returns 0x00 (0000ms, 0617ms total)
T31D0 000:836 JLINK_ReadReg(R0)  returns 0x00000000 (0000ms, 0617ms total)
T31D0 000:840 JLINK_WriteMem(0x20000000, 0x0164 Bytes, ...) - Data: 00 BE 0A E0 0D 78 2D 06 68 40 08 24 40 00 00 D3 ... -- CPU_WriteMem(356 bytes @ 0x20000000)  returns 0x164 (0004ms, 0621ms total)
T31D0 000:844 JLINK_WriteReg(R0, 0x08000000)  returns 0x00 (0000ms, 0621ms total)
T31D0 000:844 JLINK_WriteReg(R1, 0x00B71B00)  returns 0x00 (0000ms, 0621ms total)
T31D0 000:844 JLINK_WriteReg(R2, 0x00000002)  returns 0x00 (0000ms, 0621ms total)
T31D0 000:844 JLINK_WriteReg(R3, 0x00000000)  returns 0x00 (0000ms, 0621ms total)
T31D0 000:844 JLINK_WriteReg(R4, 0x00000000)  returns 0x00 (0000ms, 0621ms total)
T31D0 000:844 JLINK_WriteReg(R5, 0x00000000)  returns 0x00 (0000ms, 0621ms total)
T31D0 000:844 JLINK_WriteReg(R6, 0x00000000)  returns 0x00 (0000ms, 0621ms total)
T31D0 000:844 JLINK_WriteReg(R7, 0x00000000)  returns 0x00 (0000ms, 0621ms total)
T31D0 000:844 JLINK_WriteReg(R8, 0x00000000)  returns 0x00 (0000ms, 0621ms total)
T31D0 000:844 JLINK_WriteReg(R9, 0x20000160)  returns 0x00 (0000ms, 0621ms total)
T31D0 000:844 JLINK_WriteReg(R10, 0x00000000)  returns 0x00 (0000ms, 0621ms total)
T31D0 000:844 JLINK_WriteReg(R11, 0x00000000)  returns 0x00 (0000ms, 0621ms total)
T31D0 000:844 JLINK_WriteReg(R12, 0x00000000)  returns 0x00 (0000ms, 0621ms total)
T31D0 000:844 JLINK_WriteReg(R13 (SP), 0x20001000)  returns 0x00 (0000ms, 0621ms total)
T31D0 000:844 JLINK_WriteReg(R14, 0x20000001)  returns 0x00 (0000ms, 0621ms total)
T31D0 000:844 JLINK_WriteReg(R15 (PC), 0x20000038)  returns 0x00 (0000ms, 0621ms total)
T31D0 000:844 JLINK_WriteReg(XPSR, 0x01000000)  returns 0x00 (0000ms, 0621ms total)
T31D0 000:844 JLINK_WriteReg(MSP, 0x20001000)  returns 0x00 (0000ms, 0621ms total)
T31D0 000:844 JLINK_WriteReg(PSP, 0x20001000)  returns 0x00 (0000ms, 0621ms total)
T31D0 000:844 JLINK_WriteReg(CFBP, 0x00000000)  returns 0x00 (0000ms, 0621ms total)
T31D0 000:844 JLINK_SetBPEx(Addr = 0x20000000, Type = 0xFFFFFFF2) -- CPU_ReadMem(2 bytes @ 0x20000000)  returns 0x00000004 (0001ms, 0622ms total)
T31D0 000:845 JLINK_Go() -- CPU_WriteMem(2 bytes @ 0x20000000) (0002ms, 0624ms total)
T31D0 000:847 JLINK_IsHalted() -- CPU_ReadMem(2 bytes @ 0x20000000)  returns TRUE (0004ms, 0628ms total)
T31D0 000:851 JLINK_ReadReg(R15 (PC))  returns 0x20000000 (0000ms, 0624ms total)
T31D0 000:851 JLINK_ClrBPEx(BPHandle = 0x00000004)  returns 0x00 (0000ms, 0624ms total)
T31D0 000:851 JLINK_ReadReg(R0)  returns 0x00000000 (0000ms, 0624ms total)
T31D0 000:851 JLINK_WriteMem(0x20000164, 0x0400 Bytes, ...) - Data: 00 0A 00 20 45 01 00 08 57 46 00 08 99 1C 00 08 ... -- CPU_WriteMem(1024 bytes @ 0x20000164)  returns 0x400 (0011ms, 0635ms total)
T31D0 000:862 JLINK_WriteReg(R0, 0x08000000)  returns 0x00 (0000ms, 0635ms total)
T31D0 000:862 JLINK_WriteReg(R1, 0x00000400)  returns 0x00 (0000ms, 0635ms total)
T31D0 000:862 JLINK_WriteReg(R2, 0x20000164)  returns 0x00 (0000ms, 0635ms total)
T31D0 000:862 JLINK_WriteReg(R3, 0x00000000)  returns 0x00 (0000ms, 0635ms total)
T31D0 000:862 JLINK_WriteReg(R4, 0x00000000)  returns 0x00 (0000ms, 0635ms total)
T31D0 000:862 JLINK_WriteReg(R5, 0x00000000)  returns 0x00 (0000ms, 0635ms total)
T31D0 000:862 JLINK_WriteReg(R6, 0x00000000)  returns 0x00 (0000ms, 0635ms total)
T31D0 000:862 JLINK_WriteReg(R7, 0x00000000)  returns 0x00 (0000ms, 0635ms total)
T31D0 000:862 JLINK_WriteReg(R8, 0x00000000)  returns 0x00 (0000ms, 0635ms total)
T31D0 000:862 JLINK_WriteReg(R9, 0x20000160)  returns 0x00 (0000ms, 0635ms total)
T31D0 000:862 JLINK_WriteReg(R10, 0x00000000)  returns 0x00 (0000ms, 0635ms total)
T31D0 000:862 JLINK_WriteReg(R11, 0x00000000)  returns 0x00 (0000ms, 0635ms total)
T31D0 000:862 JLINK_WriteReg(R12, 0x00000000)  returns 0x00 (0000ms, 0635ms total)
T31D0 000:862 JLINK_WriteReg(R13 (SP), 0x20001000)  returns 0x00 (0000ms, 0635ms total)
T31D0 000:862 JLINK_WriteReg(R14, 0x20000001)  returns 0x00 (0000ms, 0635ms total)
T31D0 000:862 JLINK_WriteReg(R15 (PC), 0x200000F4)  returns 0x00 (0000ms, 0635ms total)
T31D0 000:862 JLINK_WriteReg(XPSR, 0x01000000)  returns 0x00 (0000ms, 0635ms total)
T31D0 000:862 JLINK_WriteReg(MSP, 0x20001000)  returns 0x00 (0000ms, 0635ms total)
T31D0 000:862 JLINK_WriteReg(PSP, 0x20001000)  returns 0x00 (0000ms, 0635ms total)
T31D0 000:862 JLINK_WriteReg(CFBP, 0x00000000)  returns 0x00 (0000ms, 0635ms total)
T31D0 000:862 JLINK_SetBPEx(Addr = 0x20000000, Type = 0xFFFFFFF2)  returns 0x00000005 (0000ms, 0635ms total)
T31D0 000:862 JLINK_Go() (0002ms, 0637ms total)
T31D0 000:864 JLINK_IsHalted()  returns FALSE (0001ms, 0638ms total)
T31D0 000:884 JLINK_IsHalted()  returns FALSE (0000ms, 0637ms total)
T31D0 000:886 JLINK_IsHalted()  returns FALSE (0000ms, 0637ms total)
T31D0 000:888 JLINK_IsHalted()  returns FALSE (0000ms, 0637ms total)
T31D0 000:890 JLINK_IsHalted()  returns FALSE (0000ms, 0637ms total)
T31D0 000:895 JLINK_IsHalted()  returns FALSE (0000ms, 0637ms total)
T31D0 000:897 JLINK_IsHalted() -- CPU_ReadMem(2 bytes @ 0x20000000)  returns TRUE (0003ms, 0640ms total)
T31D0 000:900 JLINK_ReadReg(R15 (PC))  returns 0x20000000 (0000ms, 0637ms total)
T31D0 000:900 JLINK_ClrBPEx(BPHandle = 0x00000005)  returns 0x00 (0000ms, 0637ms total)
T31D0 000:900 JLINK_ReadReg(R0)  returns 0x00000000 (0000ms, 0637ms total)
T31D0 000:901 JLINK_WriteMem(0x20000164, 0x0400 Bytes, ...) - Data: 01 20 09 F0 A1 FF 68 1C 85 B2 38 2D F5 DB BE 20 ... -- CPU_WriteMem(1024 bytes @ 0x20000164)  returns 0x400 (0011ms, 0648ms total)
T31D0 000:912 JLINK_WriteReg(R0, 0x08000400)  returns 0x00 (0000ms, 0648ms total)
T31D0 000:912 JLINK_WriteReg(R1, 0x00000400)  returns 0x00 (0000ms, 0648ms total)
T31D0 000:912 JLINK_WriteReg(R2, 0x20000164)  returns 0x00 (0000ms, 0648ms total)
T31D0 000:912 JLINK_WriteReg(R3, 0x00000000)  returns 0x00 (0000ms, 0648ms total)
T31D0 000:913 JLINK_WriteReg(R4, 0x00000000)  returns 0x00 (0000ms, 0649ms total)
T31D0 000:913 JLINK_WriteReg(R5, 0x00000000)  returns 0x00 (0000ms, 0649ms total)
T31D0 000:913 JLINK_WriteReg(R6, 0x00000000)  returns 0x00 (0000ms, 0649ms total)
T31D0 000:913 JLINK_WriteReg(R7, 0x00000000)  returns 0x00 (0000ms, 0649ms total)
T31D0 000:913 JLINK_WriteReg(R8, 0x00000000)  returns 0x00 (0000ms, 0649ms total)
T31D0 000:913 JLINK_WriteReg(R9, 0x20000160)  returns 0x00 (0000ms, 0649ms total)
T31D0 000:913 JLINK_WriteReg(R10, 0x00000000)  returns 0x00 (0000ms, 0649ms total)
T31D0 000:913 JLINK_WriteReg(R11, 0x00000000)  returns 0x00 (0000ms, 0649ms total)
T31D0 000:913 JLINK_WriteReg(R12, 0x00000000)  returns 0x00 (0000ms, 0649ms total)
T31D0 000:913 JLINK_WriteReg(R13 (SP), 0x20001000)  returns 0x00 (0000ms, 0649ms total)
T31D0 000:913 JLINK_WriteReg(R14, 0x20000001)  returns 0x00 (0000ms, 0649ms total)
T31D0 000:913 JLINK_WriteReg(R15 (PC), 0x200000F4)  returns 0x00 (0000ms, 0649ms total)
T31D0 000:913 JLINK_WriteReg(XPSR, 0x01000000)  returns 0x00 (0000ms, 0649ms total)
T31D0 000:913 JLINK_WriteReg(MSP, 0x20001000)  returns 0x00 (0000ms, 0649ms total)
T31D0 000:913 JLINK_WriteReg(PSP, 0x20001000)  returns 0x00 (0000ms, 0649ms total)
T31D0 000:913 JLINK_WriteReg(CFBP, 0x00000000)  returns 0x00 (0000ms, 0649ms total)
T31D0 000:913 JLINK_SetBPEx(Addr = 0x20000000, Type = 0xFFFFFFF2)  returns 0x00000006 (0000ms, 0649ms total)
T31D0 000:913 JLINK_Go() (0001ms, 0650ms total)
T31D0 000:914 JLINK_IsHalted()  returns FALSE (0001ms, 0651ms total)
T31D0 000:920 JLINK_IsHalted()  returns FALSE (0000ms, 0650ms total)
T31D0 000:922 JLINK_IsHalted()  returns FALSE (0000ms, 0650ms total)
T31D0 000:924 JLINK_IsHalted()  returns FALSE (0000ms, 0650ms total)
T31D0 000:926 JLINK_IsHalted()  returns FALSE (0000ms, 0650ms total)
T31D0 000:928 JLINK_IsHalted()  returns FALSE (0000ms, 0650ms total)
T31D0 000:930 JLINK_IsHalted()  returns FALSE (0000ms, 0650ms total)
T31D0 000:934 JLINK_IsHalted()  returns FALSE (0000ms, 0650ms total)
T31D0 000:936 JLINK_IsHalted()  returns FALSE (0000ms, 0650ms total)
T31D0 000:938 JLINK_IsHalted()  returns FALSE (0000ms, 0650ms total)
T31D0 000:940 JLINK_IsHalted()  returns FALSE (0000ms, 0650ms total)
T31D0 000:942 JLINK_IsHalted()  returns FALSE (0000ms, 0650ms total)
T31D0 000:944 JLINK_IsHalted()  returns FALSE (0000ms, 0650ms total)
T31D0 000:946 JLINK_IsHalted() -- CPU_ReadMem(2 bytes @ 0x20000000)  returns TRUE (0004ms, 0654ms total)
T31D0 000:950 JLINK_ReadReg(R15 (PC))  returns 0x20000000 (0000ms, 0650ms total)
T31D0 000:950 JLINK_ClrBPEx(BPHandle = 0x00000006)  returns 0x00 (0000ms, 0650ms total)
T31D0 000:950 JLINK_ReadReg(R0)  returns 0x00000000 (0000ms, 0650ms total)
T31D0 000:950 JLINK_WriteMem(0x20000164, 0x0400 Bytes, ...) - Data: 0F 01 02 1F 11 60 32 E0 1A 49 14 31 88 42 08 D1 ... -- CPU_WriteMem(1024 bytes @ 0x20000164)  returns 0x400 (0011ms, 0661ms total)
T31D0 000:961 JLINK_WriteReg(R0, 0x08000800)  returns 0x00 (0000ms, 0661ms total)
T31D0 000:961 JLINK_WriteReg(R1, 0x00000400)  returns 0x00 (0000ms, 0661ms total)
T31D0 000:961 JLINK_WriteReg(R2, 0x20000164)  returns 0x00 (0000ms, 0661ms total)
T31D0 000:961 JLINK_WriteReg(R3, 0x00000000)  returns 0x00 (0000ms, 0661ms total)
T31D0 000:961 JLINK_WriteReg(R4, 0x00000000)  returns 0x00 (0000ms, 0661ms total)
T31D0 000:961 JLINK_WriteReg(R5, 0x00000000)  returns 0x00 (0000ms, 0661ms total)
T31D0 000:961 JLINK_WriteReg(R6, 0x00000000)  returns 0x00 (0000ms, 0661ms total)
T31D0 000:961 JLINK_WriteReg(R7, 0x00000000)  returns 0x00 (0000ms, 0661ms total)
T31D0 000:961 JLINK_WriteReg(R8, 0x00000000)  returns 0x00 (0000ms, 0661ms total)
T31D0 000:961 JLINK_WriteReg(R9, 0x20000160)  returns 0x00 (0000ms, 0661ms total)
T31D0 000:961 JLINK_WriteReg(R10, 0x00000000)  returns 0x00 (0000ms, 0661ms total)
T31D0 000:961 JLINK_WriteReg(R11, 0x00000000)  returns 0x00 (0000ms, 0661ms total)
T31D0 000:961 JLINK_WriteReg(R12, 0x00000000)  returns 0x00 (0000ms, 0661ms total)
T31D0 000:961 JLINK_WriteReg(R13 (SP), 0x20001000)  returns 0x00 (0000ms, 0661ms total)
T31D0 000:961 JLINK_WriteReg(R14, 0x20000001)  returns 0x00 (0000ms, 0661ms total)
T31D0 000:961 JLINK_WriteReg(R15 (PC), 0x200000F4)  returns 0x00 (0000ms, 0661ms total)
T31D0 000:961 JLINK_WriteReg(XPSR, 0x01000000)  returns 0x00 (0000ms, 0661ms total)
T31D0 000:961 JLINK_WriteReg(MSP, 0x20001000)  returns 0x00 (0000ms, 0661ms total)
T31D0 000:961 JLINK_WriteReg(PSP, 0x20001000)  returns 0x00 (0000ms, 0661ms total)
T31D0 000:961 JLINK_WriteReg(CFBP, 0x00000000)  returns 0x00 (0000ms, 0661ms total)
T31D0 000:961 JLINK_SetBPEx(Addr = 0x20000000, Type = 0xFFFFFFF2)  returns 0x00000007 (0000ms, 0661ms total)
T31D0 000:961 JLINK_Go() (0002ms, 0663ms total)
T31D0 000:963 JLINK_IsHalted()  returns FALSE (0000ms, 0663ms total)
T31D0 000:976 JLINK_IsHalted()  returns FALSE (0000ms, 0663ms total)
T31D0 000:981 JLINK_IsHalted()  returns FALSE (0000ms, 0663ms total)
T31D0 000:983 JLINK_IsHalted()  returns FALSE (0000ms, 0663ms total)
T31D0 000:985 JLINK_IsHalted()  returns FALSE (0000ms, 0663ms total)
T31D0 000:987 JLINK_IsHalted()  returns FALSE (0000ms, 0663ms total)
T31D0 000:989 JLINK_IsHalted()  returns FALSE (0000ms, 0663ms total)
T31D0 000:991 JLINK_IsHalted()  returns FALSE (0000ms, 0663ms total)
T31D0 000:994 JLINK_IsHalted() -- CPU_ReadMem(2 bytes @ 0x20000000)  returns TRUE (0004ms, 0667ms total)
T31D0 000:998 JLINK_ReadReg(R15 (PC))  returns 0x20000000 (0000ms, 0663ms total)
T31D0 000:998 JLINK_ClrBPEx(BPHandle = 0x00000007)  returns 0x00 (0000ms, 0663ms total)
T31D0 000:998 JLINK_ReadReg(R0)  returns 0x00000000 (0000ms, 0663ms total)
T31D0 000:998 JLINK_WriteMem(0x20000164, 0x0400 Bytes, ...) - Data: 0C E0 00 23 1A 46 03 21 0B 48 07 F0 5B FC 05 E0 ... -- CPU_WriteMem(1024 bytes @ 0x20000164)  returns 0x400 (0011ms, 0674ms total)
T31D0 001:009 JLINK_WriteReg(R0, 0x08000C00)  returns 0x00 (0000ms, 0674ms total)
T31D0 001:009 JLINK_WriteReg(R1, 0x00000400)  returns 0x00 (0000ms, 0674ms total)
T31D0 001:009 JLINK_WriteReg(R2, 0x20000164)  returns 0x00 (0000ms, 0674ms total)
T31D0 001:009 JLINK_WriteReg(R3, 0x00000000)  returns 0x00 (0000ms, 0674ms total)
T31D0 001:009 JLINK_WriteReg(R4, 0x00000000)  returns 0x00 (0000ms, 0674ms total)
T31D0 001:009 JLINK_WriteReg(R5, 0x00000000)  returns 0x00 (0000ms, 0674ms total)
T31D0 001:009 JLINK_WriteReg(R6, 0x00000000)  returns 0x00 (0000ms, 0674ms total)
T31D0 001:009 JLINK_WriteReg(R7, 0x00000000)  returns 0x00 (0000ms, 0674ms total)
T31D0 001:009 JLINK_WriteReg(R8, 0x00000000)  returns 0x00 (0000ms, 0674ms total)
T31D0 001:009 JLINK_WriteReg(R9, 0x20000160)  returns 0x00 (0000ms, 0674ms total)
T31D0 001:009 JLINK_WriteReg(R10, 0x00000000)  returns 0x00 (0000ms, 0674ms total)
T31D0 001:009 JLINK_WriteReg(R11, 0x00000000)  returns 0x00 (0000ms, 0674ms total)
T31D0 001:009 JLINK_WriteReg(R12, 0x00000000)  returns 0x00 (0000ms, 0674ms total)
T31D0 001:009 JLINK_WriteReg(R13 (SP), 0x20001000)  returns 0x00 (0000ms, 0674ms total)
T31D0 001:009 JLINK_WriteReg(R14, 0x20000001)  returns 0x00 (0000ms, 0674ms total)
T31D0 001:009 JLINK_WriteReg(R15 (PC), 0x200000F4)  returns 0x00 (0000ms, 0674ms total)
T31D0 001:009 JLINK_WriteReg(XPSR, 0x01000000)  returns 0x00 (0000ms, 0674ms total)
T31D0 001:009 JLINK_WriteReg(MSP, 0x20001000)  returns 0x00 (0000ms, 0674ms total)
T31D0 001:009 JLINK_WriteReg(PSP, 0x20001000)  returns 0x00 (0000ms, 0674ms total)
T31D0 001:009 JLINK_WriteReg(CFBP, 0x00000000)  returns 0x00 (0000ms, 0674ms total)
T31D0 001:009 JLINK_SetBPEx(Addr = 0x20000000, Type = 0xFFFFFFF2)  returns 0x00000008 (0000ms, 0674ms total)
T31D0 001:009 JLINK_Go() (0002ms, 0676ms total)
T31D0 001:011 JLINK_IsHalted()  returns FALSE (0001ms, 0677ms total)
T31D0 001:015 JLINK_IsHalted()  returns FALSE (0000ms, 0676ms total)
T31D0 001:017 JLINK_IsHalted()  returns FALSE (0000ms, 0676ms total)
T31D0 001:019 JLINK_IsHalted()  returns FALSE (0000ms, 0676ms total)
T31D0 001:021 JLINK_IsHalted()  returns FALSE (0000ms, 0676ms total)
T31D0 001:023 JLINK_IsHalted()  returns FALSE (0000ms, 0676ms total)
T31D0 001:027 JLINK_IsHalted()  returns FALSE (0000ms, 0676ms total)
T31D0 001:029 JLINK_IsHalted()  returns FALSE (0000ms, 0676ms total)
T31D0 001:031 JLINK_IsHalted()  returns FALSE (0000ms, 0676ms total)
T31D0 001:033 JLINK_IsHalted()  returns FALSE (0000ms, 0676ms total)
T31D0 001:035 JLINK_IsHalted()  returns FALSE (0000ms, 0676ms total)
T31D0 001:037 JLINK_IsHalted()  returns FALSE (0000ms, 0676ms total)
T31D0 001:039 JLINK_IsHalted()  returns FALSE (0000ms, 0676ms total)
T31D0 001:042 JLINK_IsHalted()  returns FALSE (0000ms, 0676ms total)
T31D0 001:044 JLINK_IsHalted() -- CPU_ReadMem(2 bytes @ 0x20000000)  returns TRUE (0004ms, 0680ms total)
T31D0 001:048 JLINK_ReadReg(R15 (PC))  returns 0x20000000 (0000ms, 0676ms total)
T31D0 001:048 JLINK_ClrBPEx(BPHandle = 0x00000008)  returns 0x00 (0000ms, 0676ms total)
T31D0 001:048 JLINK_ReadReg(R0)  returns 0x00000000 (0000ms, 0676ms total)
T31D0 001:048 JLINK_WriteMem(0x20000164, 0x0400 Bytes, ...) - Data: 51 44 C8 B2 09 F0 0A F9 02 99 B8 31 51 44 C8 B2 ... -- CPU_WriteMem(1024 bytes @ 0x20000164)  returns 0x400 (0010ms, 0686ms total)
T31D0 001:058 JLINK_WriteReg(R0, 0x08001000)  returns 0x00 (0000ms, 0686ms total)
T31D0 001:058 JLINK_WriteReg(R1, 0x00000400)  returns 0x00 (0000ms, 0686ms total)
T31D0 001:058 JLINK_WriteReg(R2, 0x20000164)  returns 0x00 (0000ms, 0686ms total)
T31D0 001:058 JLINK_WriteReg(R3, 0x00000000)  returns 0x00 (0000ms, 0686ms total)
T31D0 001:058 JLINK_WriteReg(R4, 0x00000000)  returns 0x00 (0000ms, 0686ms total)
T31D0 001:058 JLINK_WriteReg(R5, 0x00000000)  returns 0x00 (0000ms, 0686ms total)
T31D0 001:058 JLINK_WriteReg(R6, 0x00000000)  returns 0x00 (0000ms, 0686ms total)
T31D0 001:058 JLINK_WriteReg(R7, 0x00000000)  returns 0x00 (0000ms, 0686ms total)
T31D0 001:058 JLINK_WriteReg(R8, 0x00000000)  returns 0x00 (0000ms, 0686ms total)
T31D0 001:058 JLINK_WriteReg(R9, 0x20000160)  returns 0x00 (0000ms, 0686ms total)
T31D0 001:058 JLINK_WriteReg(R10, 0x00000000)  returns 0x00 (0000ms, 0686ms total)
T31D0 001:058 JLINK_WriteReg(R11, 0x00000000)  returns 0x00 (0000ms, 0686ms total)
T31D0 001:058 JLINK_WriteReg(R12, 0x00000000)  returns 0x00 (0000ms, 0686ms total)
T31D0 001:058 JLINK_WriteReg(R13 (SP), 0x20001000)  returns 0x00 (0000ms, 0686ms total)
T31D0 001:058 JLINK_WriteReg(R14, 0x20000001)  returns 0x00 (0000ms, 0686ms total)
T31D0 001:058 JLINK_WriteReg(R15 (PC), 0x200000F4)  returns 0x00 (0000ms, 0686ms total)
T31D0 001:058 JLINK_WriteReg(XPSR, 0x01000000)  returns 0x00 (0000ms, 0686ms total)
T31D0 001:058 JLINK_WriteReg(MSP, 0x20001000)  returns 0x00 (0000ms, 0686ms total)
T31D0 001:058 JLINK_WriteReg(PSP, 0x20001000)  returns 0x00 (0000ms, 0686ms total)
T31D0 001:058 JLINK_WriteReg(CFBP, 0x00000000)  returns 0x00 (0000ms, 0686ms total)
T31D0 001:058 JLINK_SetBPEx(Addr = 0x20000000, Type = 0xFFFFFFF2)  returns 0x00000009 (0000ms, 0686ms total)
T31D0 001:058 JLINK_Go() (0002ms, 0688ms total)
T31D0 001:060 JLINK_IsHalted()  returns FALSE (0001ms, 0689ms total)
T31D0 001:064 JLINK_IsHalted()  returns FALSE (0000ms, 0688ms total)
T31D0 001:066 JLINK_IsHalted()  returns FALSE (0000ms, 0688ms total)
T31D0 001:068 JLINK_IsHalted()  returns FALSE (0000ms, 0688ms total)
T31D0 001:070 JLINK_IsHalted()  returns FALSE (0000ms, 0688ms total)
T31D0 001:084 JLINK_IsHalted()  returns FALSE (0000ms, 0688ms total)
T31D0 001:088 JLINK_IsHalted()  returns FALSE (0000ms, 0688ms total)
T31D0 001:090 JLINK_IsHalted()  returns FALSE (0000ms, 0688ms total)
T31D0 001:092 JLINK_IsHalted() -- CPU_ReadMem(2 bytes @ 0x20000000)  returns TRUE (0004ms, 0692ms total)
T31D0 001:096 JLINK_ReadReg(R15 (PC))  returns 0x20000000 (0000ms, 0688ms total)
T31D0 001:096 JLINK_ClrBPEx(BPHandle = 0x00000009)  returns 0x00 (0000ms, 0688ms total)
T31D0 001:096 JLINK_ReadReg(R0)  returns 0x00000000 (0000ms, 0688ms total)
T31D0 001:096 JLINK_WriteMem(0x20000164, 0x0400 Bytes, ...) - Data: 30 30 C0 B2 8D F8 11 00 2E 20 8D F8 12 00 00 20 ... -- CPU_WriteMem(1024 bytes @ 0x20000164)  returns 0x400 (0011ms, 0699ms total)
T31D0 001:107 JLINK_WriteReg(R0, 0x08001400)  returns 0x00 (0000ms, 0699ms total)
T31D0 001:107 JLINK_WriteReg(R1, 0x00000400)  returns 0x00 (0000ms, 0699ms total)
T31D0 001:107 JLINK_WriteReg(R2, 0x20000164)  returns 0x00 (0000ms, 0699ms total)
T31D0 001:107 JLINK_WriteReg(R3, 0x00000000)  returns 0x00 (0000ms, 0699ms total)
T31D0 001:107 JLINK_WriteReg(R4, 0x00000000)  returns 0x00 (0000ms, 0699ms total)
T31D0 001:107 JLINK_WriteReg(R5, 0x00000000)  returns 0x00 (0000ms, 0699ms total)
T31D0 001:107 JLINK_WriteReg(R6, 0x00000000)  returns 0x00 (0000ms, 0699ms total)
T31D0 001:107 JLINK_WriteReg(R7, 0x00000000)  returns 0x00 (0000ms, 0699ms total)
T31D0 001:107 JLINK_WriteReg(R8, 0x00000000)  returns 0x00 (0000ms, 0699ms total)
T31D0 001:107 JLINK_WriteReg(R9, 0x20000160)  returns 0x00 (0000ms, 0699ms total)
T31D0 001:107 JLINK_WriteReg(R10, 0x00000000)  returns 0x00 (0000ms, 0699ms total)
T31D0 001:107 JLINK_WriteReg(R11, 0x00000000)  returns 0x00 (0000ms, 0699ms total)
T31D0 001:107 JLINK_WriteReg(R12, 0x00000000)  returns 0x00 (0000ms, 0699ms total)
T31D0 001:107 JLINK_WriteReg(R13 (SP), 0x20001000)  returns 0x00 (0000ms, 0699ms total)
T31D0 001:107 JLINK_WriteReg(R14, 0x20000001)  returns 0x00 (0000ms, 0699ms total)
T31D0 001:107 JLINK_WriteReg(R15 (PC), 0x200000F4)  returns 0x00 (0000ms, 0699ms total)
T31D0 001:107 JLINK_WriteReg(XPSR, 0x01000000)  returns 0x00 (0000ms, 0699ms total)
T31D0 001:107 JLINK_WriteReg(MSP, 0x20001000)  returns 0x00 (0000ms, 0699ms total)
T31D0 001:107 JLINK_WriteReg(PSP, 0x20001000)  returns 0x00 (0000ms, 0699ms total)
T31D0 001:107 JLINK_WriteReg(CFBP, 0x00000000)  returns 0x00 (0000ms, 0699ms total)
T31D0 001:107 JLINK_SetBPEx(Addr = 0x20000000, Type = 0xFFFFFFF2)  returns 0x0000000A (0000ms, 0699ms total)
T31D0 001:107 JLINK_Go() (0002ms, 0701ms total)
T31D0 001:109 JLINK_IsHalted()  returns FALSE (0001ms, 0702ms total)
T31D0 001:114 JLINK_IsHalted()  returns FALSE (0000ms, 0701ms total)
T31D0 001:119 JLINK_IsHalted()  returns FALSE (0000ms, 0701ms total)
T31D0 001:121 JLINK_IsHalted()  returns FALSE (0000ms, 0701ms total)
T31D0 001:123 JLINK_IsHalted()  returns FALSE (0000ms, 0701ms total)
T31D0 001:125 JLINK_IsHalted()  returns FALSE (0000ms, 0701ms total)
T31D0 001:127 JLINK_IsHalted()  returns FALSE (0000ms, 0701ms total)
T31D0 001:129 JLINK_IsHalted()  returns FALSE (0000ms, 0701ms total)
T31D0 001:131 JLINK_IsHalted()  returns FALSE (0000ms, 0701ms total)
T31D0 001:136 JLINK_IsHalted()  returns FALSE (0000ms, 0701ms total)
T31D0 001:138 JLINK_IsHalted()  returns FALSE (0000ms, 0701ms total)
T31D0 001:140 JLINK_IsHalted() -- CPU_ReadMem(2 bytes @ 0x20000000)  returns TRUE (0004ms, 0705ms total)
T31D0 001:144 JLINK_ReadReg(R15 (PC))  returns 0x20000000 (0000ms, 0701ms total)
T31D0 001:144 JLINK_ClrBPEx(BPHandle = 0x0000000A)  returns 0x00 (0000ms, 0701ms total)
T31D0 001:144 JLINK_ReadReg(R0)  returns 0x00000000 (0000ms, 0701ms total)
T31D0 001:144 JLINK_WriteMem(0x20000164, 0x0400 Bytes, ...) - Data: C0 00 2B 49 43 18 20 22 06 21 00 20 FF F7 2F FA ... -- CPU_WriteMem(1024 bytes @ 0x20000164)  returns 0x400 (0011ms, 0712ms total)
T31D0 001:155 JLINK_WriteReg(R0, 0x08001800)  returns 0x00 (0000ms, 0712ms total)
T31D0 001:155 JLINK_WriteReg(R1, 0x00000400)  returns 0x00 (0000ms, 0712ms total)
T31D0 001:155 JLINK_WriteReg(R2, 0x20000164)  returns 0x00 (0000ms, 0712ms total)
T31D0 001:155 JLINK_WriteReg(R3, 0x00000000)  returns 0x00 (0000ms, 0712ms total)
T31D0 001:155 JLINK_WriteReg(R4, 0x00000000)  returns 0x00 (0000ms, 0712ms total)
T31D0 001:155 JLINK_WriteReg(R5, 0x00000000)  returns 0x00 (0000ms, 0712ms total)
T31D0 001:155 JLINK_WriteReg(R6, 0x00000000)  returns 0x00 (0000ms, 0712ms total)
T31D0 001:155 JLINK_WriteReg(R7, 0x00000000)  returns 0x00 (0000ms, 0712ms total)
T31D0 001:155 JLINK_WriteReg(R8, 0x00000000)  returns 0x00 (0000ms, 0712ms total)
T31D0 001:155 JLINK_WriteReg(R9, 0x20000160)  returns 0x00 (0000ms, 0712ms total)
T31D0 001:155 JLINK_WriteReg(R10, 0x00000000)  returns 0x00 (0000ms, 0712ms total)
T31D0 001:155 JLINK_WriteReg(R11, 0x00000000)  returns 0x00 (0000ms, 0712ms total)
T31D0 001:155 JLINK_WriteReg(R12, 0x00000000)  returns 0x00 (0000ms, 0712ms total)
T31D0 001:155 JLINK_WriteReg(R13 (SP), 0x20001000)  returns 0x00 (0000ms, 0712ms total)
T31D0 001:155 JLINK_WriteReg(R14, 0x20000001)  returns 0x00 (0001ms, 0713ms total)
T31D0 001:156 JLINK_WriteReg(R15 (PC), 0x200000F4)  returns 0x00 (0000ms, 0713ms total)
T31D0 001:156 JLINK_WriteReg(XPSR, 0x01000000)  returns 0x00 (0000ms, 0713ms total)
T31D0 001:156 JLINK_WriteReg(MSP, 0x20001000)  returns 0x00 (0000ms, 0713ms total)
T31D0 001:156 JLINK_WriteReg(PSP, 0x20001000)  returns 0x00 (0000ms, 0713ms total)
T31D0 001:156 JLINK_WriteReg(CFBP, 0x00000000)  returns 0x00 (0000ms, 0713ms total)
T31D0 001:156 JLINK_SetBPEx(Addr = 0x20000000, Type = 0xFFFFFFF2)  returns 0x0000000B (0000ms, 0713ms total)
T31D0 001:156 JLINK_Go() (0001ms, 0714ms total)
T31D0 001:157 JLINK_IsHalted()  returns FALSE (0001ms, 0715ms total)
T31D0 001:161 JLINK_IsHalted()  returns FALSE (0000ms, 0714ms total)
T31D0 001:163 JLINK_IsHalted()  returns FALSE (0000ms, 0714ms total)
T31D0 001:167 JLINK_IsHalted()  returns FALSE (0000ms, 0714ms total)
T31D0 001:169 JLINK_IsHalted()  returns FALSE (0000ms, 0714ms total)
T31D0 001:171 JLINK_IsHalted()  returns FALSE (0000ms, 0714ms total)
T31D0 001:173 JLINK_IsHalted()  returns FALSE (0000ms, 0714ms total)
T31D0 001:175 JLINK_IsHalted()  returns FALSE (0000ms, 0714ms total)
T31D0 001:177 JLINK_IsHalted()  returns FALSE (0000ms, 0714ms total)
T31D0 001:179 JLINK_IsHalted()  returns FALSE (0000ms, 0714ms total)
T31D0 001:192 JLINK_IsHalted() -- CPU_ReadMem(2 bytes @ 0x20000000)  returns TRUE (0004ms, 0718ms total)
T31D0 001:196 JLINK_ReadReg(R15 (PC))  returns 0x20000000 (0000ms, 0714ms total)
T31D0 001:196 JLINK_ClrBPEx(BPHandle = 0x0000000B)  returns 0x00 (0000ms, 0714ms total)
T31D0 001:196 JLINK_ReadReg(R0)  returns 0x00000000 (0000ms, 0714ms total)
T31D0 001:196 JLINK_WriteMem(0x20000164, 0x0400 Bytes, ...) - Data: 83 B2 00 F4 40 16 B6 F5 40 1F 08 D1 21 F0 70 61 ... -- CPU_WriteMem(1024 bytes @ 0x20000164)  returns 0x400 (0011ms, 0725ms total)
T31D0 001:207 JLINK_WriteReg(R0, 0x08001C00)  returns 0x00 (0000ms, 0725ms total)
T31D0 001:207 JLINK_WriteReg(R1, 0x00000400)  returns 0x00 (0000ms, 0725ms total)
T31D0 001:207 JLINK_WriteReg(R2, 0x20000164)  returns 0x00 (0000ms, 0725ms total)
T31D0 001:207 JLINK_WriteReg(R3, 0x00000000)  returns 0x00 (0000ms, 0725ms total)
T31D0 001:207 JLINK_WriteReg(R4, 0x00000000)  returns 0x00 (0000ms, 0725ms total)
T31D0 001:207 JLINK_WriteReg(R5, 0x00000000)  returns 0x00 (0000ms, 0725ms total)
T31D0 001:207 JLINK_WriteReg(R6, 0x00000000)  returns 0x00 (0000ms, 0725ms total)
T31D0 001:207 JLINK_WriteReg(R7, 0x00000000)  returns 0x00 (0000ms, 0725ms total)
T31D0 001:207 JLINK_WriteReg(R8, 0x00000000)  returns 0x00 (0000ms, 0725ms total)
T31D0 001:207 JLINK_WriteReg(R9, 0x20000160)  returns 0x00 (0000ms, 0725ms total)
T31D0 001:207 JLINK_WriteReg(R10, 0x00000000)  returns 0x00 (0000ms, 0725ms total)
T31D0 001:207 JLINK_WriteReg(R11, 0x00000000)  returns 0x00 (0000ms, 0725ms total)
T31D0 001:207 JLINK_WriteReg(R12, 0x00000000)  returns 0x00 (0000ms, 0725ms total)
T31D0 001:207 JLINK_WriteReg(R13 (SP), 0x20001000)  returns 0x00 (0000ms, 0725ms total)
T31D0 001:207 JLINK_WriteReg(R14, 0x20000001)  returns 0x00 (0000ms, 0725ms total)
T31D0 001:207 JLINK_WriteReg(R15 (PC), 0x200000F4)  returns 0x00 (0000ms, 0725ms total)
T31D0 001:207 JLINK_WriteReg(XPSR, 0x01000000)  returns 0x00 (0000ms, 0725ms total)
T31D0 001:207 JLINK_WriteReg(MSP, 0x20001000)  returns 0x00 (0000ms, 0725ms total)
T31D0 001:207 JLINK_WriteReg(PSP, 0x20001000)  returns 0x00 (0000ms, 0725ms total)
T31D0 001:207 JLINK_WriteReg(CFBP, 0x00000000)  returns 0x00 (0000ms, 0725ms total)
T31D0 001:207 JLINK_SetBPEx(Addr = 0x20000000, Type = 0xFFFFFFF2)  returns 0x0000000C (0001ms, 0726ms total)
T31D0 001:208 JLINK_Go() (0001ms, 0727ms total)
T31D0 001:209 JLINK_IsHalted()  returns FALSE (0001ms, 0728ms total)
T31D0 001:214 JLINK_IsHalted()  returns FALSE (0000ms, 0727ms total)
T31D0 001:216 JLINK_IsHalted()  returns FALSE (0000ms, 0727ms total)
T31D0 001:218 JLINK_IsHalted()  returns FALSE (0000ms, 0727ms total)
T31D0 001:220 JLINK_IsHalted()  returns FALSE (0000ms, 0727ms total)
T31D0 001:222 JLINK_IsHalted()  returns FALSE (0000ms, 0727ms total)
T31D0 001:224 JLINK_IsHalted()  returns FALSE (0000ms, 0727ms total)
T31D0 001:226 JLINK_IsHalted()  returns FALSE (0000ms, 0727ms total)
T31D0 001:231 JLINK_IsHalted()  returns FALSE (0000ms, 0727ms total)
T31D0 001:233 JLINK_IsHalted()  returns FALSE (0000ms, 0727ms total)
T31D0 001:235 JLINK_IsHalted()  returns FALSE (0000ms, 0727ms total)
T31D0 001:237 JLINK_IsHalted()  returns FALSE (0000ms, 0727ms total)
T31D0 001:239 JLINK_IsHalted()  returns FALSE (0000ms, 0727ms total)
T31D0 001:241 JLINK_IsHalted() -- CPU_ReadMem(2 bytes @ 0x20000000)  returns TRUE (0003ms, 0730ms total)
T31D0 001:244 JLINK_ReadReg(R15 (PC))  returns 0x20000000 (0000ms, 0727ms total)
T31D0 001:244 JLINK_ClrBPEx(BPHandle = 0x0000000C)  returns 0x00 (0000ms, 0727ms total)
T31D0 001:244 JLINK_ReadReg(R0)  returns 0x00000000 (0000ms, 0727ms total)
T31D0 001:245 JLINK_WriteMem(0x20000164, 0x0400 Bytes, ...) - Data: 45 F2 55 50 00 F0 3E F8 28 46 00 F0 2F F8 20 46 ... -- CPU_WriteMem(1024 bytes @ 0x20000164)  returns 0x400 (0011ms, 0738ms total)
T31D0 001:256 JLINK_WriteReg(R0, 0x08002000)  returns 0x00 (0000ms, 0738ms total)
T31D0 001:256 JLINK_WriteReg(R1, 0x00000400)  returns 0x00 (0000ms, 0738ms total)
T31D0 001:256 JLINK_WriteReg(R2, 0x20000164)  returns 0x00 (0000ms, 0738ms total)
T31D0 001:256 JLINK_WriteReg(R3, 0x00000000)  returns 0x00 (0000ms, 0738ms total)
T31D0 001:256 JLINK_WriteReg(R4, 0x00000000)  returns 0x00 (0000ms, 0738ms total)
T31D0 001:256 JLINK_WriteReg(R5, 0x00000000)  returns 0x00 (0000ms, 0738ms total)
T31D0 001:256 JLINK_WriteReg(R6, 0x00000000)  returns 0x00 (0000ms, 0738ms total)
T31D0 001:256 JLINK_WriteReg(R7, 0x00000000)  returns 0x00 (0000ms, 0738ms total)
T31D0 001:256 JLINK_WriteReg(R8, 0x00000000)  returns 0x00 (0000ms, 0738ms total)
T31D0 001:256 JLINK_WriteReg(R9, 0x20000160)  returns 0x00 (0000ms, 0738ms total)
T31D0 001:256 JLINK_WriteReg(R10, 0x00000000)  returns 0x00 (0000ms, 0738ms total)
T31D0 001:256 JLINK_WriteReg(R11, 0x00000000)  returns 0x00 (0000ms, 0738ms total)
T31D0 001:256 JLINK_WriteReg(R12, 0x00000000)  returns 0x00 (0000ms, 0738ms total)
T31D0 001:256 JLINK_WriteReg(R13 (SP), 0x20001000)  returns 0x00 (0000ms, 0738ms total)
T31D0 001:256 JLINK_WriteReg(R14, 0x20000001)  returns 0x00 (0000ms, 0738ms total)
T31D0 001:256 JLINK_WriteReg(R15 (PC), 0x200000F4)  returns 0x00 (0000ms, 0738ms total)
T31D0 001:256 JLINK_WriteReg(XPSR, 0x01000000)  returns 0x00 (0000ms, 0738ms total)
T31D0 001:256 JLINK_WriteReg(MSP, 0x20001000)  returns 0x00 (0000ms, 0738ms total)
T31D0 001:256 JLINK_WriteReg(PSP, 0x20001000)  returns 0x00 (0000ms, 0738ms total)
T31D0 001:256 JLINK_WriteReg(CFBP, 0x00000000)  returns 0x00 (0000ms, 0738ms total)
T31D0 001:256 JLINK_SetBPEx(Addr = 0x20000000, Type = 0xFFFFFFF2)  returns 0x0000000D (0000ms, 0738ms total)
T31D0 001:256 JLINK_Go() (0002ms, 0740ms total)
T31D0 001:258 JLINK_IsHalted()  returns FALSE (0000ms, 0740ms total)
T31D0 001:262 JLINK_IsHalted()  returns FALSE (0000ms, 0740ms total)
T31D0 001:264 JLINK_IsHalted()  returns FALSE (0000ms, 0740ms total)
T31D0 001:267 JLINK_IsHalted()  returns FALSE (0000ms, 0740ms total)
T31D0 001:269 JLINK_IsHalted()  returns FALSE (0000ms, 0740ms total)
T31D0 001:271 JLINK_IsHalted()  returns FALSE (0000ms, 0740ms total)
T31D0 001:276 JLINK_IsHalted()  returns FALSE (0000ms, 0740ms total)
T31D0 001:278 JLINK_IsHalted()  returns FALSE (0000ms, 0740ms total)
T31D0 001:280 JLINK_IsHalted()  returns FALSE (0000ms, 0740ms total)
T31D0 001:282 JLINK_IsHalted()  returns FALSE (0000ms, 0740ms total)
T31D0 001:284 JLINK_IsHalted()  returns FALSE (0000ms, 0740ms total)
T31D0 001:286 JLINK_IsHalted()  returns FALSE (0000ms, 0740ms total)
T31D0 001:288 JLINK_IsHalted()  returns FALSE (0000ms, 0740ms total)
T31D0 001:301 JLINK_IsHalted() -- CPU_ReadMem(2 bytes @ 0x20000000)  returns TRUE (0003ms, 0743ms total)
T31D0 001:304 JLINK_ReadReg(R15 (PC))  returns 0x20000000 (0000ms, 0740ms total)
T31D0 001:304 JLINK_ClrBPEx(BPHandle = 0x0000000D)  returns 0x00 (0000ms, 0740ms total)
T31D0 001:304 JLINK_ReadReg(R0)  returns 0x00000000 (0000ms, 0740ms total)
T31D0 001:305 JLINK_WriteMem(0x20000164, 0x0400 Bytes, ...) - Data: A0 F2 7F 10 B0 B3 40 28 6B D0 60 28 08 D1 1E E0 ... -- CPU_WriteMem(1024 bytes @ 0x20000164)  returns 0x400 (0011ms, 0751ms total)
T31D0 001:316 JLINK_WriteReg(R0, 0x08002400)  returns 0x00 (0000ms, 0751ms total)
T31D0 001:316 JLINK_WriteReg(R1, 0x00000400)  returns 0x00 (0000ms, 0751ms total)
T31D0 001:316 JLINK_WriteReg(R2, 0x20000164)  returns 0x00 (0000ms, 0751ms total)
T31D0 001:316 JLINK_WriteReg(R3, 0x00000000)  returns 0x00 (0000ms, 0751ms total)
T31D0 001:316 JLINK_WriteReg(R4, 0x00000000)  returns 0x00 (0000ms, 0751ms total)
T31D0 001:316 JLINK_WriteReg(R5, 0x00000000)  returns 0x00 (0000ms, 0751ms total)
T31D0 001:316 JLINK_WriteReg(R6, 0x00000000)  returns 0x00 (0000ms, 0751ms total)
T31D0 001:316 JLINK_WriteReg(R7, 0x00000000)  returns 0x00 (0000ms, 0751ms total)
T31D0 001:316 JLINK_WriteReg(R8, 0x00000000)  returns 0x00 (0000ms, 0751ms total)
T31D0 001:316 JLINK_WriteReg(R9, 0x20000160)  returns 0x00 (0000ms, 0751ms total)
T31D0 001:316 JLINK_WriteReg(R10, 0x00000000)  returns 0x00 (0000ms, 0751ms total)
T31D0 001:316 JLINK_WriteReg(R11, 0x00000000)  returns 0x00 (0000ms, 0751ms total)
T31D0 001:316 JLINK_WriteReg(R12, 0x00000000)  returns 0x00 (0000ms, 0751ms total)
T31D0 001:316 JLINK_WriteReg(R13 (SP), 0x20001000)  returns 0x00 (0000ms, 0751ms total)
T31D0 001:316 JLINK_WriteReg(R14, 0x20000001)  returns 0x00 (0000ms, 0751ms total)
T31D0 001:316 JLINK_WriteReg(R15 (PC), 0x200000F4)  returns 0x00 (0000ms, 0751ms total)
T31D0 001:316 JLINK_WriteReg(XPSR, 0x01000000)  returns 0x00 (0000ms, 0751ms total)
T31D0 001:316 JLINK_WriteReg(MSP, 0x20001000)  returns 0x00 (0000ms, 0751ms total)
T31D0 001:316 JLINK_WriteReg(PSP, 0x20001000)  returns 0x00 (0000ms, 0751ms total)
T31D0 001:316 JLINK_WriteReg(CFBP, 0x00000000)  returns 0x00 (0000ms, 0751ms total)
T31D0 001:316 JLINK_SetBPEx(Addr = 0x20000000, Type = 0xFFFFFFF2)  returns 0x0000000E (0000ms, 0751ms total)
T31D0 001:316 JLINK_Go() (0002ms, 0753ms total)
T31D0 001:318 JLINK_IsHalted()  returns FALSE (0001ms, 0754ms total)
T31D0 001:324 JLINK_IsHalted()  returns FALSE (0000ms, 0753ms total)
T31D0 001:326 JLINK_IsHalted()  returns FALSE (0000ms, 0753ms total)
T31D0 001:328 JLINK_IsHalted()  returns FALSE (0000ms, 0753ms total)
T31D0 001:330 JLINK_IsHalted()  returns FALSE (0000ms, 0753ms total)
T31D0 001:332 JLINK_IsHalted()  returns FALSE (0000ms, 0753ms total)
T31D0 001:334 JLINK_IsHalted()  returns FALSE (0000ms, 0753ms total)
T31D0 001:336 JLINK_IsHalted()  returns FALSE (0000ms, 0753ms total)
T31D0 001:339 JLINK_IsHalted()  returns FALSE (0000ms, 0753ms total)
T31D0 001:341 JLINK_IsHalted()  returns FALSE (0000ms, 0753ms total)
T31D0 001:343 JLINK_IsHalted()  returns FALSE (0000ms, 0753ms total)
T31D0 001:345 JLINK_IsHalted()  returns FALSE (0000ms, 0753ms total)
T31D0 001:347 JLINK_IsHalted()  returns FALSE (0000ms, 0753ms total)
T31D0 001:349 JLINK_IsHalted() -- CPU_ReadMem(2 bytes @ 0x20000000)  returns TRUE (0003ms, 0756ms total)
T31D0 001:352 JLINK_ReadReg(R15 (PC))  returns 0x20000000 (0000ms, 0753ms total)
T31D0 001:352 JLINK_ClrBPEx(BPHandle = 0x0000000E)  returns 0x00 (0000ms, 0753ms total)
T31D0 001:352 JLINK_ReadReg(R0)  returns 0x00000000 (0000ms, 0753ms total)
T31D0 001:353 JLINK_WriteMem(0x20000164, 0x0400 Bytes, ...) - Data: B0 B3 40 28 77 D0 60 28 69 D1 8F E0 08 29 7F D0 ... -- CPU_WriteMem(1024 bytes @ 0x20000164)  returns 0x400 (0011ms, 0764ms total)
T31D0 001:364 JLINK_WriteReg(R0, 0x08002800)  returns 0x00 (0000ms, 0764ms total)
T31D0 001:364 JLINK_WriteReg(R1, 0x00000400)  returns 0x00 (0000ms, 0764ms total)
T31D0 001:364 JLINK_WriteReg(R2, 0x20000164)  returns 0x00 (0000ms, 0764ms total)
